
T1104 000:996 SEGGER J-Link V4.50k Log File (0000ms, 0995ms total)
T1104 000:996 DLL Compiled: Jul  2 2012 16:03:19 (0000ms, 0995ms total)
T1104 000:996 Logging started @ 2012-09-20 09:57 (0000ms, 0995ms total)
T1104 000:996 JLINK_SetWarnOutHandler(...) (0000ms, 0995ms total)
T1104 000:996 JLINK_OpenEx(...)
Firmware: J-Link ARM V8 compiled Jul 20 2012 16:33:52
Hardware: V8.00
S/N: 17892859
Feature(s): RDI,FlashDL,FlashBP,JFlash  returns O.K. (0048ms, 1043ms total)
T1104 001:044 JLINK_SetErrorOutHandler(...) (0000ms, 1043ms total)
T1104 001:046 JLINK_ExecCommand("Device = STM32F103CB", ...)
                JLINK_ExecCommand("map ram 0x20000000 - 0x20004FFF", ...)  returns 0x00 (0000ms, 0000ms total)
                JLINK_AddMirrorAreaEx(Addr = 0x00000000, Size = 0x00000000) (0000ms, 0000ms total)
              Device "STM32F103CB" selected (128 KB flash, 20 KB RAM).  returns 0x00 (0001ms, 1044ms total)
T1104 001:047 JLINK_ExecCommand("ProjectFile = "E:\workfile\nanotron\test_proj\groud_loc_2.2\Project\Anchor\JLinkSettings.ini"", ...)  returns 0x00 (0001ms, 1045ms total)
T1104 001:048 JLINK_ExecCommand("DisableConnectionTimeout", ...)  returns 0x00 (0000ms, 1045ms total)
T1104 001:048 JLINK_TIF_Select(JLINKARM_TIF_JTAG)  returns 0x00 (0000ms, 1045ms total)
T1104 001:048 JLINK_SetSpeed(2000) (0001ms, 1046ms total)
T1104 001:049 JLINK_GetHardwareVersion()  returns 0x13880 (0000ms, 1046ms total)
T1104 001:049 JLINK_GetDLLVersion()  returns 45011 (0000ms, 1046ms total)
T1104 001:049 JLINK_GetFirmwareString(...) (0000ms, 1046ms total)
T1104 001:050 JLINK_GetDLLVersion()  returns 45011 (0000ms, 1046ms total)
T1104 001:050 JLINK_GetCompileDateTime() (0000ms, 1046ms total)
T1104 001:050 JLINK_GetFirmwareString(...) (0000ms, 1046ms total)
T1104 001:050 JLINK_GetHardwareVersion()  returns 0x13880 (0000ms, 1046ms total)
T1104 001:050 JLINK_GetIdData(...) >0x2F8 JTAG>TotalIRLen = 9, IRPrint = 0x0011 >0x30 JTAG> >0x210 JTAG> >0x40 JTAG> >0x40 JTAG> >0x40 JTAG> >0x30 JTAG> >0x40 JTAG> >0x40 JTAG> >0x40 JTAG> >0x40 JTAG> >0x40 JTAG> >0x40 JTAG> >0x40 JTAG> >0x40 JTAG> >0x2F8 JTAG>TotalIRLen = 9, IRPrint = 0x0011 >0x30 JTAG> >0x210 JTAG> >0x80 JTAG> >0x40 JTAG> >0x40 JTAG> >0x50 JTAG> >0x40 JTAG> >0x40 JTAG> >0x40 JTAG> >0x50 JTAG> >0x40 JTAG> >0x50 JTAG> >0x40 JTAG> >0x40 JTAG> >0x40 JTAG> >0x40 JTAG> >0x30 JTAG>
 >0x40 JTAG> >0x50 JTAG> >0x40 JTAG> >0x38 JTAG> >0x80 JTAG> >0x40 JTAG> >0x40 JTAG> >0x50 JTAG> >0x40 JTAG> >0x40 JTAG> >0x40 JTAG> >0x50 JTAG> >0x40 JTAG> >0x40 JTAG> >0x30 JTAG> >0x40 JTAG> >0x40 JTAG> >0x40 JTAG> >0x40 JTAG> >0x40 JTAG> >0x50 JTAG> >0x40 JTAG> >0x80 JTAG> >0x40 JTAG> >0x30 JTAG> >0x40 JTAG> >0x40 JTAG> >0x40 JTAG> >0x40 JTAG> >0x40 JTAG> >0x50 JTAG> >0x40 JTAG> >0x80 JTAG> >0x40 JTAG> >0x30 JTAG> >0x40 JTAG> >0x50 JTAG> >0x40 JTAG> >0x40 JTAG> >0x40 JTAG> >0x30 JTAG> >0x40 JTAG>
 >0x50 JTAG> >0x40 JTAG>Found Cortex-M3 r1p1, Little endian. >0x50 JTAG> >0x50 JTAG> >0x40 JTAG> >0x40 JTAG> >0x30 JTAG> >0x30 JTAG> >0x50 JTAG> >0x40 JTAG> >0x80 JTAG> >0x40 JTAG> >0x30 JTAG> >0x40 JTAG> >0x50 JTAG> >0x40 JTAG> >0x40 JTAG> >0x40 JTAG> >0x30 JTAG> >0x40 JTAG> >0x50 JTAG> >0x40 JTAG>TPIU fitted. >0x40 JTAG> >0x40 JTAG> >0x30 JTAG> >0x40 JTAG> >0x50 JTAG> >0x40 JTAG> >0x40 JTAG> >0x40 JTAG> >0x30 JTAG> >0x40 JTAG> >0x50 JTAG> >0x40 JTAG> >0x40 JTAG> >0x40 JTAG> >0x30 JTAG> >0x40 JTAG>
 >0x50 JTAG> >0x40 JTAG>FPUnit: 6 code (BP) slots and 2 literal slots >0x40 JTAG> >0x40 JTAG> >0x30 JTAG> >0x40 JTAG> >0x50 JTAG> >0x40 JTAG> >0x40 JTAG> >0x40 JTAG> >0x30 JTAG> >0x40 JTAG> >0x50 JTAG> >0x40 JTAG> ScanLen=9 NumDevices=2 aId[0]=0x3BA00477 aIrRead[0]=0 aScanLen[0]=0 aScanRead[0]=0 (0138ms, 1184ms total)
T1104 001:188 JLINK_JTAG_GetDeviceID(DeviceIndex = 0)  returns 0x3BA00477 (0000ms, 1184ms total)
T1104 001:188 JLINK_JTAG_GetDeviceInfo(DeviceIndex = 0)  returns 0x00 (0000ms, 1184ms total)
T1104 001:188 JLINK_JTAG_GetDeviceID(DeviceIndex = 1)  returns 0x16410041 (0000ms, 1184ms total)
T1104 001:188 JLINK_JTAG_GetDeviceInfo(DeviceIndex = 1)  returns 0x00 (0000ms, 1184ms total)
T1104 001:188 JLINK_GetDebugInfo(0x100) -- Value=0xE00FF003  returns 0x00 (0001ms, 1185ms total)
T1104 001:189 JLINK_ReadMem (0xE00FFFF0, 0x0010 Bytes, ...) -- CPU is running -- CPU_ReadMem(16 bytes @ 0xE00FFFF0) -- Data:  0D 00 00 00 10 00 00 00 05 00 00 00 B1 00 00 00  returns 0x00 (0005ms, 1190ms total)
T1104 001:194 JLINK_ReadMem (0xE00FFFD0, 0x0020 Bytes, ...) -- CPU is running -- CPU_ReadMem(32 bytes @ 0xE00FFFD0) -- Data:  00 00 00 00 00 00 00 00 00 00 00 00 00 00 00 00 ...  returns 0x00 (0002ms, 1192ms total)
T1104 001:196 JLINK_ReadMem (0xE00FF000, 0x0018 Bytes, ...) -- CPU is running -- CPU_ReadMem(24 bytes @ 0xE00FF000) -- Data:  03 F0 F0 FF 03 20 F0 FF 03 30 F0 FF 03 10 F0 FF ...  returns 0x00 (0002ms, 1194ms total)
T1104 001:198 JLINK_ReadMemU32(0xE000ED00, 0x0001 Items, ...) -- CPU is running -- CPU_ReadMem(4 bytes @ 0xE000ED00) -- Data:  31 C2 1F 41  returns 0x01 (0002ms, 1196ms total)
T1104 001:200 JLINK_SetResetType(JLINKARM_RESET_TYPE_NORMAL)  returns JLINKARM_RESET_TYPE_NORMAL (0000ms, 1196ms total)
T1104 001:200 JLINK_Reset() >0x48 JTAG> >0x80 JTAG> >0x40 JTAG> >0x40 JTAG> >0x50 JTAG> >0x40 JTAG> >0x40 JTAG> >0x40 JTAG> >0x50 JTAG> >0x40 JTAG> >0x40 JTAG> >0x30 JTAG> >0x40 JTAG> >0x40 JTAG> >0x40 JTAG> >0x40 JTAG> >0x40 JTAG> >0x50 JTAG> >0x40 JTAG> >0x80 JTAG> >0x40 JTAG> >0x30 JTAG> >0x40 JTAG> >0x40 JTAG> >0x40 JTAG> >0x40 JTAG> >0x40 JTAG> >0x50 JTAG> >0x40 JTAG> >0x80 JTAG> >0x40 JTAG> >0x30 JTAG> >0x40 JTAG> >0x50 JTAG> >0x40 JTAG> >0x40 JTAG> >0x40 JTAG> >0x30 JTAG> >0x40 JTAG> >0x50 JTAG>
 >0x40 JTAG>Found Cortex-M3 r1p1, Little endian. >0x50 JTAG> >0x50 JTAG> >0x40 JTAG> >0x40 JTAG> >0x30 JTAG> >0x30 JTAG> >0x50 JTAG> >0x40 JTAG> >0x80 JTAG> >0x40 JTAG> >0x30 JTAG> >0x40 JTAG> >0x50 JTAG> >0x40 JTAG> >0x40 JTAG> >0x40 JTAG> >0x30 JTAG> >0x40 JTAG> >0x50 JTAG> >0x40 JTAG>TPIU fitted. >0x40 JTAG> >0x40 JTAG> >0x30 JTAG> >0x40 JTAG> >0x50 JTAG> >0x40 JTAG> >0x40 JTAG> >0x40 JTAG> >0x30 JTAG> >0x40 JTAG> >0x50 JTAG> >0x40 JTAG> >0x40 JTAG> >0x40 JTAG> >0x30 JTAG> >0x40 JTAG> >0x50 JTAG>
 >0x40 JTAG>FPUnit: 6 code (BP) slots and 2 literal slots >0x40 JTAG> >0x40 JTAG> >0x30 JTAG> >0x40 JTAG> >0x50 JTAG> >0x40 JTAG> >0x40 JTAG> >0x40 JTAG> >0x30 JTAG> >0x40 JTAG> >0x50 JTAG> >0x40 JTAG> -- CPU is running -- CPU_WriteMem(4 bytes @ 0xE000EDF0) -- CPU is running -- CPU_WriteMem(4 bytes @ 0xE000EDFC) -- CPU is running -- CPU_WriteMem(4 bytes @ 0xE000ED0C) -- CPU is running -- CPU_ReadMem(4 bytes @ 0xE000EDF0) -- CPU is running -- CPU_ReadMem(4 bytes @ 0xE000EDF0) -- CPU is running
 -- CPU_WriteMem(4 bytes @ 0xE000EDF0) -- CPU is running -- CPU_WriteMem(4 bytes @ 0xE000EDFC) -- CPU is running -- CPU_ReadMem(4 bytes @ 0xE000EDF0) >0x90 JTAG> >0x40 JTAG> >0x30 JTAG> >0x40 JTAG> >0x50 JTAG> >0x40 JTAG> -- CPU_WriteMem(4 bytes @ 0xE000EDFC) -- CPU_WriteMem(4 bytes @ 0xE0001028) -- CPU_WriteMem(4 bytes @ 0xE0001038) -- CPU_WriteMem(4 bytes @ 0xE0001048) -- CPU_WriteMem(4 bytes @ 0xE0001058) -- CPU_WriteMem(4 bytes @ 0xE0002000) (0133ms, 1329ms total)
T1104 001:333 JLINK_ReadReg(R15)  returns 0x08000100 (0000ms, 1329ms total)
T1104 001:333 JLINK_ReadReg(XPSR)  returns 0x01000000 (0000ms, 1329ms total)
T1104 001:333 JLINK_Halt()  returns 0x00 (0000ms, 1329ms total)
T1104 001:333 JLINK_IsHalted()  returns TRUE (0000ms, 1329ms total)
T1104 001:333 JLINK_ReadMemU32(0xE000EDF0, 0x0001 Items, ...) -- CPU_ReadMem(4 bytes @ 0xE000EDF0) -- Data:  03 00 03 00  returns 0x01 (0001ms, 1330ms total)
T1104 001:334 JLINK_WriteU32(0xE000EDF0, 0xA05F0003) -- CPU_WriteMem(4 bytes @ 0xE000EDF0)  returns 0x00 (0001ms, 1331ms total)
T1104 001:335 JLINK_WriteU32(0xE000EDFC, 0x01000000) -- CPU_WriteMem(4 bytes @ 0xE000EDFC)  returns 0x00 (0001ms, 1332ms total)
T1104 001:336 JLINK_GetHWStatus(...)  returns 0x00 (0001ms, 1333ms total)
T1104 001:337 JLINK_GetNumBPUnits(Type = 0xFFFFFF00)  returns 0x06 (0000ms, 1333ms total)
T1104 001:337 JLINK_GetNumBPUnits(Type = 0xF0)  returns 0x2000 (0000ms, 1333ms total)
T1104 001:337 JLINK_GetNumWPUnits()  returns 0x04 (0000ms, 1333ms total)
T1104 001:337 JLINK_GetSpeed()  returns 0x7D0 (0000ms, 1333ms total)
T1104 001:337 JLINK_ReadMemU32(0xE000E004, 0x0001 Items, ...) -- CPU_ReadMem(4 bytes @ 0xE000E004) -- Data:  01 00 00 00  returns 0x01 (0002ms, 1335ms total)
T1104 001:339 JLINK_ReadMemU32(0xE000E004, 0x0001 Items, ...) -- CPU_ReadMem(4 bytes @ 0xE000E004) -- Data:  01 00 00 00  returns 0x01 (0002ms, 1337ms total)
T1104 001:341 JLINK_WriteMem(0xE0001000, 0x001C Bytes, ...) -- Data:  01 00 00 00 00 00 00 00 00 00 00 00 00 00 00 00 ... -- CPU_WriteMem(28 bytes @ 0xE0001000)  returns 0x1C (0001ms, 1338ms total)
T1104 001:342 JLINK_ReadMem (0xE0001000, 0x001C Bytes, ...) -- CPU_ReadMem(28 bytes @ 0xE0001000) -- Data:  01 00 00 40 00 00 00 00 00 00 00 00 00 00 00 00 ...  returns 0x00 (0002ms, 1340ms total)
T1104 001:344 JLINK_ReadReg(R15)  returns 0x08000100 (0000ms, 1340ms total)
T1104 001:344 JLINK_ReadReg(XPSR)  returns 0x01000000 (0000ms, 1340ms total)
T1104 001:460 JLINK_SetResetType(JLINKARM_RESET_TYPE_NORMAL)  returns JLINKARM_RESET_TYPE_NORMAL (0000ms, 1340ms total)
T1104 001:460 JLINK_Reset() >0x38 JTAG> >0x80 JTAG> >0x40 JTAG> >0x40 JTAG> >0x50 JTAG> >0x40 JTAG> >0x40 JTAG> >0x40 JTAG> >0x50 JTAG> >0x40 JTAG> >0x40 JTAG> >0x30 JTAG> >0x40 JTAG> >0x40 JTAG> >0x40 JTAG> >0x40 JTAG> >0x40 JTAG> >0x50 JTAG> >0x40 JTAG> >0x80 JTAG> >0x40 JTAG> >0x30 JTAG> >0x40 JTAG> >0x40 JTAG> >0x40 JTAG> >0x40 JTAG> >0x40 JTAG> >0x50 JTAG> >0x40 JTAG> >0x80 JTAG> >0x40 JTAG> >0x30 JTAG> >0x40 JTAG> >0x50 JTAG> >0x40 JTAG> >0x40 JTAG> >0x40 JTAG> >0x30 JTAG> >0x40 JTAG> >0x50 JTAG>
 >0x40 JTAG>Found Cortex-M3 r1p1, Little endian. >0x50 JTAG> >0x50 JTAG> >0x40 JTAG> >0x40 JTAG> >0x30 JTAG> >0x30 JTAG> >0x50 JTAG> >0x40 JTAG> >0x80 JTAG> >0x40 JTAG> >0x30 JTAG> >0x40 JTAG> >0x50 JTAG> >0x40 JTAG> >0x40 JTAG> >0x40 JTAG> >0x30 JTAG> >0x40 JTAG> >0x50 JTAG> >0x40 JTAG>TPIU fitted. >0x40 JTAG> >0x40 JTAG> >0x30 JTAG> >0x40 JTAG> >0x50 JTAG> >0x40 JTAG> >0x40 JTAG> >0x40 JTAG> >0x30 JTAG> >0x40 JTAG> >0x50 JTAG> >0x40 JTAG> >0x40 JTAG> >0x40 JTAG> >0x30 JTAG> >0x40 JTAG> >0x50 JTAG>
 >0x40 JTAG>FPUnit: 6 code (BP) slots and 2 literal slots >0x40 JTAG> >0x40 JTAG> >0x30 JTAG> >0x40 JTAG> >0x50 JTAG> >0x40 JTAG> >0x40 JTAG> >0x40 JTAG> >0x30 JTAG> >0x40 JTAG> >0x50 JTAG> >0x40 JTAG> -- CPU_WriteMem(4 bytes @ 0xE000EDF0) -- CPU_WriteMem(4 bytes @ 0xE000EDFC) -- CPU_WriteMem(4 bytes @ 0xE000ED0C) -- CPU_ReadMem(4 bytes @ 0xE000EDF0) -- CPU_ReadMem(4 bytes @ 0xE000EDF0) -- CPU_WriteMem(4 bytes @ 0xE000EDF0) -- CPU_WriteMem(4 bytes @ 0xE000EDFC) -- CPU is running
 -- CPU_ReadMem(4 bytes @ 0xE000EDF0) >0x90 JTAG> >0x40 JTAG> >0x30 JTAG> >0x40 JTAG> >0x50 JTAG> >0x40 JTAG> -- CPU_WriteMem(4 bytes @ 0xE000EDFC) -- CPU_WriteMem(4 bytes @ 0xE0001028) -- CPU_WriteMem(4 bytes @ 0xE0001038) -- CPU_WriteMem(4 bytes @ 0xE0001048) -- CPU_WriteMem(4 bytes @ 0xE0001058) -- CPU_WriteMem(4 bytes @ 0xE0002000) (0133ms, 1473ms total)
T1104 001:593 JLINK_ReadReg(R15)  returns 0x08000100 (0000ms, 1473ms total)
T1104 001:593 JLINK_ReadReg(XPSR)  returns 0x01000000 (0000ms, 1473ms total)
T1104 001:599 JLINK_ReadMemU32(0xE0001004, 0x0001 Items, ...) -- CPU_ReadMem(4 bytes @ 0xE0001004) -- Data:  D0 0A 00 00  returns 0x01 (0002ms, 1475ms total)
T1104 001:602 JLINK_ReadMem (0x08000100, 0x003C Bytes, ...) -- CPU_ReadMem(64 bytes @ 0x08000100) -- Updating C cache (64 bytes @ 0x08000100) -- Read from C cache (60 bytes @ 0x08000100) -- Data:  06 48 80 47 06 48 00 47 FE E7 FE E7 FE E7 FE E7 ...  returns 0x00 (0002ms, 1477ms total)
T1104 003:868 JLINK_ReadMem (0x200002AF, 0x0020 Bytes, ...) -- CPU_ReadMem(128 bytes @ 0x20000280) -- Updating C cache (128 bytes @ 0x20000280) -- Read from C cache (32 bytes @ 0x200002AF) -- Data:  FF FF FF FF FF FF FF FF FF FF FF FF FF FF FF FF ...  returns 0x00 (0006ms, 1483ms total)
T0E9C 003:967 JLINK_SetBPEx(Addr = 0x08000EA8, Type = 0xFFFFFFF2)  returns 0x00000001 (0000ms, 1483ms total)
T0E9C 003:967 JLINK_SetBPEx(Addr = 0x0800067C, Type = 0xFFFFFFF2)  returns 0x00000002 (0000ms, 1483ms total)
T0E9C 003:967 JLINK_SetBPEx(Addr = 0x08000650, Type = 0xFFFFFFF2)  returns 0x00000003 (0000ms, 1483ms total)
T0E9C 003:968 JLINK_Go() -- CPU_WriteMem(4 bytes @ 0xE0002008) -- CPU_WriteMem(4 bytes @ 0xE000200C) -- CPU_WriteMem(4 bytes @ 0xE0002010) -- CPU_WriteMem(4 bytes @ 0xE0002014) -- CPU_WriteMem(4 bytes @ 0xE0002018) -- CPU_WriteMem(4 bytes @ 0xE000201C) (0008ms, 1491ms total)
T0E9C 004:077 JLINK_IsHalted()  returns TRUE (0006ms, 1497ms total)
T0E9C 004:083 JLINK_Halt()  returns 0x00 (0000ms, 1491ms total)
T0E9C 004:083 JLINK_IsHalted()  returns TRUE (0000ms, 1491ms total)
T0E9C 004:083 JLINK_IsHalted()  returns TRUE (0000ms, 1491ms total)
T0E9C 004:083 JLINK_IsHalted()  returns TRUE (0000ms, 1491ms total)
T0E9C 004:083 JLINK_ReadReg(R15)  returns 0x08000EA8 (0000ms, 1491ms total)
T0E9C 004:083 JLINK_ReadReg(XPSR)  returns 0x61000000 (0000ms, 1491ms total)
T0E9C 004:083 JLINK_ClrBPEx(BPHandle = 0x00000001)  returns 0x00 (0000ms, 1491ms total)
T0E9C 004:083 JLINK_ClrBPEx(BPHandle = 0x00000002)  returns 0x00 (0000ms, 1491ms total)
T0E9C 004:083 JLINK_ClrBPEx(BPHandle = 0x00000003)  returns 0x00 (0000ms, 1491ms total)
T0E9C 004:083 JLINK_ReadMemU32(0xE000ED30, 0x0001 Items, ...) -- CPU_ReadMem(4 bytes @ 0xE000ED30) -- Data:  03 00 00 00  returns 0x01 (0002ms, 1493ms total)
T0E9C 004:085 JLINK_ReadMemU32(0xE0001028, 0x0001 Items, ...) -- CPU_ReadMem(4 bytes @ 0xE0001028) -- Data:  00 00 00 00  returns 0x01 (0001ms, 1494ms total)
T0E9C 004:086 JLINK_ReadMemU32(0xE0001038, 0x0001 Items, ...) -- CPU_ReadMem(4 bytes @ 0xE0001038) -- Data:  00 02 00 00  returns 0x01 (0001ms, 1495ms total)
T0E9C 004:087 JLINK_ReadMemU32(0xE0001048, 0x0001 Items, ...) -- CPU_ReadMem(4 bytes @ 0xE0001048) -- Data:  00 00 00 00  returns 0x01 (0002ms, 1497ms total)
T0E9C 004:089 JLINK_ReadMemU32(0xE0001058, 0x0001 Items, ...) -- CPU_ReadMem(4 bytes @ 0xE0001058) -- Data:  00 00 00 00  returns 0x01 (0001ms, 1498ms total)
T0E9C 004:090 JLINK_ReadReg(R0)  returns 0x08000EA9 (0000ms, 1498ms total)
T0E9C 004:090 JLINK_ReadReg(R1)  returns 0x20000C80 (0000ms, 1498ms total)
T0E9C 004:090 JLINK_ReadReg(R2)  returns 0x00000000 (0000ms, 1498ms total)
T0E9C 004:090 JLINK_ReadReg(R3)  returns 0x08006001 (0000ms, 1498ms total)
T0E9C 004:090 JLINK_ReadReg(R4)  returns 0x08007788 (0000ms, 1498ms total)
T0E9C 004:090 JLINK_ReadReg(R5)  returns 0x08007788 (0000ms, 1498ms total)
T0E9C 004:090 JLINK_ReadReg(R6)  returns 0x00000000 (0000ms, 1498ms total)
T0E9C 004:090 JLINK_ReadReg(R7)  returns 0x00000000 (0000ms, 1498ms total)
T0E9C 004:090 JLINK_ReadReg(R8)  returns 0x00000000 (0000ms, 1498ms total)
T0E9C 004:090 JLINK_ReadReg(R9)  returns 0x20000160 (0000ms, 1498ms total)
T0E9C 004:090 JLINK_ReadReg(R10)  returns 0x00000000 (0000ms, 1498ms total)
T0E9C 004:090 JLINK_ReadReg(R11)  returns 0x00000000 (0000ms, 1498ms total)
T0E9C 004:090 JLINK_ReadReg(R12)  returns 0x00000000 (0000ms, 1498ms total)
T0E9C 004:090 JLINK_ReadReg(R13)  returns 0x20000C80 (0000ms, 1498ms total)
T0E9C 004:090 JLINK_ReadReg(R14)  returns 0x08005FC9 (0000ms, 1498ms total)
T0E9C 004:090 JLINK_ReadReg(R15)  returns 0x08000EA8 (0000ms, 1498ms total)
T0E9C 004:090 JLINK_ReadReg(XPSR)  returns 0x61000000 (0000ms, 1498ms total)
T0E9C 004:090 JLINK_ReadReg(MSP)  returns 0x20000C80 (0000ms, 1498ms total)
T0E9C 004:090 JLINK_ReadReg(PSP)  returns 0x20000800 (0000ms, 1498ms total)
T0E9C 004:090 JLINK_ReadReg(CFBP)  returns 0x00000000 (0000ms, 1498ms total)
T1104 004:092 JLINK_ReadMemU32(0xE0001004, 0x0001 Items, ...) -- CPU_ReadMem(4 bytes @ 0xE0001004) -- Data:  B1 55 00 00  returns 0x01 (0000ms, 1498ms total)
T1104 004:094 JLINK_ReadMem (0x200002AF, 0x0020 Bytes, ...) -- CPU_ReadMem(128 bytes @ 0x20000280) -- Updating C cache (128 bytes @ 0x20000280) -- Read from C cache (32 bytes @ 0x200002AF) -- Data:  00 00 00 00 00 00 00 00 00 00 00 00 00 00 00 00 ...  returns 0x00 (0003ms, 1501ms total)
T1104 004:099 JLINK_ReadMem (0x08000EA8, 0x003C Bytes, ...) -- CPU_ReadMem(128 bytes @ 0x08000E80) -- Updating C cache (128 bytes @ 0x08000E80) -- Read from C cache (60 bytes @ 0x08000EA8) -- Data:  10 B5 02 F0 54 FC 4F F4 80 51 30 48 03 F0 79 FE ...  returns 0x00 (0002ms, 1503ms total)
T0E9C 008:218 JLINK_Step() -- Read from C cache (2 bytes @ 0x08000EA8) -- CPU_WriteMem(8 bytes @ 0x20000C78) -- Simulated  returns 0x00 (0004ms, 1507ms total)
T0E9C 008:222 JLINK_ReadReg(R15)  returns 0x08000EAA (0000ms, 1507ms total)
T0E9C 008:222 JLINK_ReadReg(XPSR)  returns 0x61000000 (0000ms, 1507ms total)
T0E9C 008:222 JLINK_ReadReg(R0)  returns 0x08000EA9 (0000ms, 1507ms total)
T0E9C 008:222 JLINK_ReadReg(R1)  returns 0x20000C80 (0000ms, 1507ms total)
T0E9C 008:222 JLINK_ReadReg(R2)  returns 0x00000000 (0000ms, 1507ms total)
T0E9C 008:222 JLINK_ReadReg(R3)  returns 0x08006001 (0000ms, 1507ms total)
T0E9C 008:222 JLINK_ReadReg(R4)  returns 0x08007788 (0000ms, 1507ms total)
T0E9C 008:222 JLINK_ReadReg(R5)  returns 0x08007788 (0000ms, 1507ms total)
T0E9C 008:222 JLINK_ReadReg(R6)  returns 0x00000000 (0000ms, 1507ms total)
T0E9C 008:222 JLINK_ReadReg(R7)  returns 0x00000000 (0000ms, 1507ms total)
T0E9C 008:222 JLINK_ReadReg(R8)  returns 0x00000000 (0000ms, 1507ms total)
T0E9C 008:222 JLINK_ReadReg(R9)  returns 0x20000160 (0000ms, 1507ms total)
T0E9C 008:222 JLINK_ReadReg(R10)  returns 0x00000000 (0000ms, 1507ms total)
T0E9C 008:222 JLINK_ReadReg(R11)  returns 0x00000000 (0000ms, 1507ms total)
T0E9C 008:222 JLINK_ReadReg(R12)  returns 0x00000000 (0000ms, 1507ms total)
T0E9C 008:222 JLINK_ReadReg(R13)  returns 0x20000C78 (0000ms, 1507ms total)
T0E9C 008:222 JLINK_ReadReg(R14)  returns 0x08005FC9 (0000ms, 1507ms total)
T0E9C 008:222 JLINK_ReadReg(R15)  returns 0x08000EAA (0000ms, 1507ms total)
T0E9C 008:222 JLINK_ReadReg(XPSR)  returns 0x61000000 (0000ms, 1507ms total)
T0E9C 008:222 JLINK_ReadReg(MSP)  returns 0x20000C78 (0000ms, 1507ms total)
T0E9C 008:222 JLINK_ReadReg(PSP)  returns 0x20000800 (0000ms, 1507ms total)
T0E9C 008:222 JLINK_ReadReg(CFBP)  returns 0x00000000 (0000ms, 1507ms total)
T1104 008:226 JLINK_ReadMem (0x20000C7C, 0x0004 Bytes, ...) -- CPU_ReadMem(64 bytes @ 0x20000C40) -- Updating C cache (64 bytes @ 0x20000C40) -- Read from C cache (4 bytes @ 0x20000C7C) -- Data:  C9 5F 00 08  returns 0x00 (0001ms, 1508ms total)
T1104 008:227 JLINK_ReadMemU32(0xE0001004, 0x0001 Items, ...) -- Data:  B1 55 00 00  returns 0x01 (0000ms, 1508ms total)
T1104 008:229 JLINK_ReadMem (0x200002AF, 0x0020 Bytes, ...) -- Read from C cache (32 bytes @ 0x200002AF) -- Data:  00 00 00 00 00 00 00 00 00 00 00 00 00 00 00 00 ...  returns 0x00 (0000ms, 1508ms total)
T0E9C 009:099 JLINK_ReadMem (0x08000EAA, 0x0002 Bytes, ...) -- Read from C cache (2 bytes @ 0x08000EAA) -- Data:  02 F0  returns 0x00 (0000ms, 1508ms total)
T0E9C 009:099 JLINK_ReadMem (0x08000EAC, 0x003C Bytes, ...) -- Read from C cache (60 bytes @ 0x08000EAC) -- Data:  54 FC 4F F4 80 51 30 48 03 F0 79 FE 4F F4 80 61 ...  returns 0x00 (0000ms, 1508ms total)
T0E9C 009:099 JLINK_SetBPEx(Addr = 0x08000EAE, Type = 0xFFFFFFF2)  returns 0x00000004 (0000ms, 1508ms total)
T0E9C 009:099 JLINK_SetBPEx(Addr = 0x0800067C, Type = 0xFFFFFFF2)  returns 0x00000005 (0000ms, 1508ms total)
T0E9C 009:099 JLINK_SetBPEx(Addr = 0x08000650, Type = 0xFFFFFFF2)  returns 0x00000006 (0000ms, 1508ms total)
T0E9C 009:099 JLINK_Go() -- CPU_WriteMem(4 bytes @ 0xE0002008) -- CPU_WriteMem(4 bytes @ 0xE000200C) -- CPU_WriteMem(4 bytes @ 0xE0002010) -- CPU_WriteMem(4 bytes @ 0xE0002014) -- CPU_WriteMem(4 bytes @ 0xE0002018) -- CPU_WriteMem(4 bytes @ 0xE000201C) (0011ms, 1519ms total)
T0E9C 009:211 JLINK_IsHalted()  returns TRUE (0006ms, 1525ms total)
T0E9C 009:217 JLINK_Halt()  returns 0x00 (0000ms, 1519ms total)
T0E9C 009:217 JLINK_IsHalted()  returns TRUE (0000ms, 1519ms total)
T0E9C 009:217 JLINK_IsHalted()  returns TRUE (0000ms, 1519ms total)
T0E9C 009:217 JLINK_IsHalted()  returns TRUE (0000ms, 1519ms total)
T0E9C 009:217 JLINK_ReadReg(R15)  returns 0x08000EAE (0000ms, 1519ms total)
T0E9C 009:217 JLINK_ReadReg(XPSR)  returns 0x61000000 (0000ms, 1519ms total)
T0E9C 009:217 JLINK_ClrBPEx(BPHandle = 0x00000004)  returns 0x00 (0000ms, 1519ms total)
T0E9C 009:217 JLINK_ClrBPEx(BPHandle = 0x00000005)  returns 0x00 (0000ms, 1519ms total)
T0E9C 009:217 JLINK_ClrBPEx(BPHandle = 0x00000006)  returns 0x00 (0000ms, 1519ms total)
T0E9C 009:217 JLINK_ReadMemU32(0xE000ED30, 0x0001 Items, ...) -- CPU_ReadMem(4 bytes @ 0xE000ED30) -- Data:  03 00 00 00  returns 0x01 (0001ms, 1520ms total)
T0E9C 009:218 JLINK_ReadMemU32(0xE0001028, 0x0001 Items, ...) -- CPU_ReadMem(4 bytes @ 0xE0001028) -- Data:  00 00 00 00  returns 0x01 (0001ms, 1521ms total)
T0E9C 009:219 JLINK_ReadMemU32(0xE0001038, 0x0001 Items, ...) -- CPU_ReadMem(4 bytes @ 0xE0001038) -- Data:  00 02 00 00  returns 0x01 (0001ms, 1522ms total)
T0E9C 009:220 JLINK_ReadMemU32(0xE0001048, 0x0001 Items, ...) -- CPU_ReadMem(4 bytes @ 0xE0001048) -- Data:  00 00 00 00  returns 0x01 (0002ms, 1524ms total)
T0E9C 009:222 JLINK_ReadMemU32(0xE0001058, 0x0001 Items, ...) -- CPU_ReadMem(4 bytes @ 0xE0001058) -- Data:  00 00 00 00  returns 0x01 (0002ms, 1526ms total)
T0E9C 009:224 JLINK_ReadReg(R0)  returns 0x00000008 (0000ms, 1526ms total)
T0E9C 009:224 JLINK_ReadReg(R1)  returns 0x20000C68 (0000ms, 1526ms total)
T0E9C 009:224 JLINK_ReadReg(R2)  returns 0x40010C00 (0000ms, 1526ms total)
T0E9C 009:224 JLINK_ReadReg(R3)  returns 0x10030400 (0000ms, 1526ms total)
T0E9C 009:224 JLINK_ReadReg(R4)  returns 0x08007788 (0000ms, 1526ms total)
T0E9C 009:224 JLINK_ReadReg(R5)  returns 0x08007788 (0000ms, 1526ms total)
T0E9C 009:224 JLINK_ReadReg(R6)  returns 0x00000000 (0000ms, 1526ms total)
T0E9C 009:224 JLINK_ReadReg(R7)  returns 0x00000000 (0000ms, 1526ms total)
T0E9C 009:224 JLINK_ReadReg(R8)  returns 0x00000000 (0000ms, 1526ms total)
T0E9C 009:224 JLINK_ReadReg(R9)  returns 0x20000160 (0000ms, 1526ms total)
T0E9C 009:224 JLINK_ReadReg(R10)  returns 0x00000000 (0000ms, 1526ms total)
T0E9C 009:224 JLINK_ReadReg(R11)  returns 0x00000000 (0000ms, 1526ms total)
T0E9C 009:224 JLINK_ReadReg(R12)  returns 0x00000400 (0000ms, 1526ms total)
T0E9C 009:224 JLINK_ReadReg(R13)  returns 0x20000C78 (0000ms, 1526ms total)
T0E9C 009:224 JLINK_ReadReg(R14)  returns 0x08003B5F (0000ms, 1526ms total)
T0E9C 009:224 JLINK_ReadReg(R15)  returns 0x08000EAE (0000ms, 1526ms total)
T0E9C 009:224 JLINK_ReadReg(XPSR)  returns 0x61000000 (0000ms, 1526ms total)
T0E9C 009:224 JLINK_ReadReg(MSP)  returns 0x20000C78 (0000ms, 1526ms total)
T0E9C 009:224 JLINK_ReadReg(PSP)  returns 0x20000800 (0000ms, 1526ms total)
T0E9C 009:224 JLINK_ReadReg(CFBP)  returns 0x00000000 (0000ms, 1526ms total)
T1104 009:225 JLINK_ReadMem (0x20000C7C, 0x0004 Bytes, ...) -- CPU_ReadMem(64 bytes @ 0x20000C40) -- Updating C cache (64 bytes @ 0x20000C40) -- Read from C cache (4 bytes @ 0x20000C7C) -- Data:  C9 5F 00 08  returns 0x00 (0002ms, 1528ms total)
T1104 009:227 JLINK_ReadMemU32(0xE0001004, 0x0001 Items, ...) -- CPU_ReadMem(4 bytes @ 0xE0001004) -- Data:  D8 69 00 00  returns 0x01 (0001ms, 1529ms total)
T1104 009:230 JLINK_ReadMem (0x200002AF, 0x0020 Bytes, ...) -- CPU_ReadMem(128 bytes @ 0x20000280) -- Updating C cache (128 bytes @ 0x20000280) -- Read from C cache (32 bytes @ 0x200002AF) -- Data:  00 00 00 00 00 00 00 00 00 00 00 00 00 00 00 00 ...  returns 0x00 (0003ms, 1532ms total)
T1104 009:235 JLINK_ReadMem (0x08000EAE, 0x0002 Bytes, ...) -- CPU_ReadMem(64 bytes @ 0x08000E80) -- Updating C cache (64 bytes @ 0x08000E80) -- Read from C cache (2 bytes @ 0x08000EAE) -- Data:  4F F4  returns 0x00 (0001ms, 1533ms total)
T1104 009:236 JLINK_ReadMem (0x08000EB0, 0x003C Bytes, ...) -- CPU_ReadMem(64 bytes @ 0x08000EC0) -- Updating C cache (64 bytes @ 0x08000EC0) -- Read from C cache (60 bytes @ 0x08000EB0) -- Data:  80 51 30 48 03 F0 79 FE 4F F4 80 61 2D 48 03 F0 ...  returns 0x00 (0002ms, 1535ms total)
T0E9C 010:620 JLINK_Step() -- Read from C cache (2 bytes @ 0x08000EAE) -- Read from C cache (2 bytes @ 0x08000EB0) -- Simulated  returns 0x00 (0003ms, 1538ms total)
T0E9C 010:623 JLINK_ReadReg(R15)  returns 0x08000EB2 (0000ms, 1538ms total)
T0E9C 010:623 JLINK_ReadReg(XPSR)  returns 0x61000000 (0000ms, 1538ms total)
T0E9C 010:623 JLINK_Step() -- Read from C cache (2 bytes @ 0x08000EB2) -- CPU_ReadMem(64 bytes @ 0x08000F40) -- Updating C cache (64 bytes @ 0x08000F40) -- Read from C cache (4 bytes @ 0x08000F74) -- Simulated  returns 0x00 (0002ms, 1540ms total)
T0E9C 010:625 JLINK_ReadReg(R15)  returns 0x08000EB4 (0000ms, 1540ms total)
T0E9C 010:625 JLINK_ReadReg(XPSR)  returns 0x61000000 (0000ms, 1540ms total)
T0E9C 010:625 JLINK_SetBPEx(Addr = 0x08000EB8, Type = 0xFFFFFFF2)  returns 0x00000007 (0000ms, 1540ms total)
T0E9C 010:625 JLINK_SetBPEx(Addr = 0x0800067C, Type = 0xFFFFFFF2)  returns 0x00000008 (0000ms, 1540ms total)
T0E9C 010:625 JLINK_SetBPEx(Addr = 0x08000650, Type = 0xFFFFFFF2)  returns 0x00000009 (0000ms, 1540ms total)
T0E9C 010:625 JLINK_Go() -- CPU_WriteMem(4 bytes @ 0xE0002008) -- CPU_WriteMem(4 bytes @ 0xE000200C) -- CPU_WriteMem(4 bytes @ 0xE0002010) -- CPU_WriteMem(4 bytes @ 0xE0002014) -- CPU_WriteMem(4 bytes @ 0xE0002018) -- CPU_WriteMem(4 bytes @ 0xE000201C) (0009ms, 1549ms total)
T0E9C 010:735 JLINK_IsHalted()  returns TRUE (0007ms, 1556ms total)
T0E9C 010:742 JLINK_Halt()  returns 0x00 (0000ms, 1549ms total)
T0E9C 010:742 JLINK_IsHalted()  returns TRUE (0000ms, 1549ms total)
T0E9C 010:742 JLINK_IsHalted()  returns TRUE (0000ms, 1549ms total)
T0E9C 010:742 JLINK_IsHalted()  returns TRUE (0000ms, 1549ms total)
T0E9C 010:742 JLINK_ReadReg(R15)  returns 0x08000EB8 (0000ms, 1549ms total)
T0E9C 010:742 JLINK_ReadReg(XPSR)  returns 0x61000000 (0000ms, 1549ms total)
T0E9C 010:742 JLINK_ClrBPEx(BPHandle = 0x00000007)  returns 0x00 (0000ms, 1549ms total)
T0E9C 010:742 JLINK_ClrBPEx(BPHandle = 0x00000008)  returns 0x00 (0000ms, 1549ms total)
T0E9C 010:742 JLINK_ClrBPEx(BPHandle = 0x00000009)  returns 0x00 (0000ms, 1549ms total)
T0E9C 010:742 JLINK_ReadMemU32(0xE000ED30, 0x0001 Items, ...) -- CPU_ReadMem(4 bytes @ 0xE000ED30) -- Data:  02 00 00 00  returns 0x01 (0002ms, 1551ms total)
T0E9C 010:744 JLINK_ReadMemU32(0xE0001028, 0x0001 Items, ...) -- CPU_ReadMem(4 bytes @ 0xE0001028) -- Data:  00 00 00 00  returns 0x01 (0002ms, 1553ms total)
T0E9C 010:746 JLINK_ReadMemU32(0xE0001038, 0x0001 Items, ...) -- CPU_ReadMem(4 bytes @ 0xE0001038) -- Data:  00 02 00 00  returns 0x01 (0001ms, 1554ms total)
T0E9C 010:747 JLINK_ReadMemU32(0xE0001048, 0x0001 Items, ...) -- CPU_ReadMem(4 bytes @ 0xE0001048) -- Data:  00 00 00 00  returns 0x01 (0001ms, 1555ms total)
T0E9C 010:748 JLINK_ReadMemU32(0xE0001058, 0x0001 Items, ...) -- CPU_ReadMem(4 bytes @ 0xE0001058) -- Data:  00 00 00 00  returns 0x01 (0001ms, 1556ms total)
T0E9C 010:749 JLINK_ReadReg(R0)  returns 0x40010C00 (0000ms, 1556ms total)
T0E9C 010:749 JLINK_ReadReg(R1)  returns 0x00001000 (0000ms, 1556ms total)
T0E9C 010:749 JLINK_ReadReg(R2)  returns 0x40010C00 (0000ms, 1556ms total)
T0E9C 010:749 JLINK_ReadReg(R3)  returns 0x10030400 (0000ms, 1556ms total)
T0E9C 010:749 JLINK_ReadReg(R4)  returns 0x08007788 (0000ms, 1556ms total)
T0E9C 010:749 JLINK_ReadReg(R5)  returns 0x08007788 (0000ms, 1556ms total)
T0E9C 010:749 JLINK_ReadReg(R6)  returns 0x00000000 (0000ms, 1556ms total)
T0E9C 010:749 JLINK_ReadReg(R7)  returns 0x00000000 (0000ms, 1556ms total)
T0E9C 010:749 JLINK_ReadReg(R8)  returns 0x00000000 (0000ms, 1556ms total)
T0E9C 010:749 JLINK_ReadReg(R9)  returns 0x20000160 (0000ms, 1556ms total)
T0E9C 010:749 JLINK_ReadReg(R10)  returns 0x00000000 (0000ms, 1556ms total)
T0E9C 010:749 JLINK_ReadReg(R11)  returns 0x00000000 (0000ms, 1556ms total)
T0E9C 010:749 JLINK_ReadReg(R12)  returns 0x00000400 (0000ms, 1556ms total)
T0E9C 010:749 JLINK_ReadReg(R13)  returns 0x20000C78 (0000ms, 1556ms total)
T0E9C 010:749 JLINK_ReadReg(R14)  returns 0x08000EB9 (0000ms, 1556ms total)
T0E9C 010:749 JLINK_ReadReg(R15)  returns 0x08000EB8 (0000ms, 1556ms total)
T0E9C 010:749 JLINK_ReadReg(XPSR)  returns 0x61000000 (0000ms, 1556ms total)
T0E9C 010:749 JLINK_ReadReg(MSP)  returns 0x20000C78 (0000ms, 1556ms total)
T0E9C 010:749 JLINK_ReadReg(PSP)  returns 0x20000800 (0000ms, 1556ms total)
T0E9C 010:749 JLINK_ReadReg(CFBP)  returns 0x00000000 (0000ms, 1556ms total)
T1104 010:749 JLINK_ReadMem (0x20000C7C, 0x0004 Bytes, ...) -- CPU_ReadMem(64 bytes @ 0x20000C40) -- Updating C cache (64 bytes @ 0x20000C40) -- Read from C cache (4 bytes @ 0x20000C7C) -- Data:  C9 5F 00 08  returns 0x00 (0003ms, 1559ms total)
T1104 010:752 JLINK_ReadMemU32(0xE0001004, 0x0001 Items, ...) -- CPU_ReadMem(4 bytes @ 0xE0001004) -- Data:  28 F9 00 00  returns 0x01 (0001ms, 1560ms total)
T1104 010:754 JLINK_ReadMem (0x200002AF, 0x0020 Bytes, ...) -- CPU_ReadMem(128 bytes @ 0x20000280) -- Updating C cache (128 bytes @ 0x20000280) -- Read from C cache (32 bytes @ 0x200002AF) -- Data:  00 00 00 00 00 00 00 00 00 00 00 00 00 00 00 00 ...  returns 0x00 (0003ms, 1563ms total)
T0E9C 011:355 JLINK_ReadMem (0x08000EB8, 0x003C Bytes, ...) -- CPU_ReadMem(128 bytes @ 0x08000E80) -- Updating C cache (128 bytes @ 0x08000E80) -- Read from C cache (60 bytes @ 0x08000EB8) -- Data:  4F F4 80 61 2D 48 03 F0 74 FE 4F F4 80 51 2B 48 ...  returns 0x00 (0003ms, 1566ms total)
T0E9C 011:358 JLINK_Step() -- Read from C cache (2 bytes @ 0x08000EB8) -- Read from C cache (2 bytes @ 0x08000EBA) -- Simulated  returns 0x00 (0001ms, 1567ms total)
T0E9C 011:359 JLINK_ReadReg(R15)  returns 0x08000EBC (0000ms, 1567ms total)
T0E9C 011:359 JLINK_ReadReg(XPSR)  returns 0x61000000 (0000ms, 1567ms total)
T0E9C 011:359 JLINK_Step() -- Read from C cache (2 bytes @ 0x08000EBC) -- CPU_ReadMem(64 bytes @ 0x08000F40) -- Updating C cache (64 bytes @ 0x08000F40) -- Read from C cache (4 bytes @ 0x08000F74) -- Simulated  returns 0x00 (0002ms, 1569ms total)
T0E9C 011:361 JLINK_ReadReg(R15)  returns 0x08000EBE (0000ms, 1569ms total)
T0E9C 011:361 JLINK_ReadReg(XPSR)  returns 0x61000000 (0000ms, 1569ms total)
T0E9C 011:361 JLINK_SetBPEx(Addr = 0x08000EC2, Type = 0xFFFFFFF2)  returns 0x0000000A (0000ms, 1569ms total)
T0E9C 011:361 JLINK_SetBPEx(Addr = 0x0800067C, Type = 0xFFFFFFF2)  returns 0x0000000B (0000ms, 1569ms total)
T0E9C 011:361 JLINK_SetBPEx(Addr = 0x08000650, Type = 0xFFFFFFF2)  returns 0x0000000C (0000ms, 1569ms total)
T0E9C 011:361 JLINK_Go() -- CPU_WriteMem(4 bytes @ 0xE0002008) -- CPU_WriteMem(4 bytes @ 0xE000200C) -- CPU_WriteMem(4 bytes @ 0xE0002010) -- CPU_WriteMem(4 bytes @ 0xE0002014) -- CPU_WriteMem(4 bytes @ 0xE0002018) -- CPU_WriteMem(4 bytes @ 0xE000201C) (0010ms, 1579ms total)
T0E9C 011:471 JLINK_IsHalted()  returns TRUE (0006ms, 1585ms total)
T0E9C 011:477 JLINK_Halt()  returns 0x00 (0000ms, 1579ms total)
T0E9C 011:477 JLINK_IsHalted()  returns TRUE (0000ms, 1579ms total)
T0E9C 011:477 JLINK_IsHalted()  returns TRUE (0000ms, 1579ms total)
T0E9C 011:477 JLINK_IsHalted()  returns TRUE (0000ms, 1579ms total)
T0E9C 011:477 JLINK_ReadReg(R15)  returns 0x08000EC2 (0000ms, 1579ms total)
T0E9C 011:477 JLINK_ReadReg(XPSR)  returns 0x61000000 (0000ms, 1579ms total)
T0E9C 011:477 JLINK_ClrBPEx(BPHandle = 0x0000000A)  returns 0x00 (0000ms, 1579ms total)
T0E9C 011:477 JLINK_ClrBPEx(BPHandle = 0x0000000B)  returns 0x00 (0000ms, 1579ms total)
T0E9C 011:477 JLINK_ClrBPEx(BPHandle = 0x0000000C)  returns 0x00 (0000ms, 1579ms total)
T0E9C 011:477 JLINK_ReadMemU32(0xE000ED30, 0x0001 Items, ...) -- CPU_ReadMem(4 bytes @ 0xE000ED30) -- Data:  03 00 00 00  returns 0x01 (0002ms, 1581ms total)
T0E9C 011:479 JLINK_ReadMemU32(0xE0001028, 0x0001 Items, ...) -- CPU_ReadMem(4 bytes @ 0xE0001028) -- Data:  00 00 00 00  returns 0x01 (0001ms, 1582ms total)
T0E9C 011:480 JLINK_ReadMemU32(0xE0001038, 0x0001 Items, ...) -- CPU_ReadMem(4 bytes @ 0xE0001038) -- Data:  00 02 00 00  returns 0x01 (0002ms, 1584ms total)
T0E9C 011:482 JLINK_ReadMemU32(0xE0001048, 0x0001 Items, ...) -- CPU_ReadMem(4 bytes @ 0xE0001048) -- Data:  00 00 00 00  returns 0x01 (0001ms, 1585ms total)
T0E9C 011:483 JLINK_ReadMemU32(0xE0001058, 0x0001 Items, ...) -- CPU_ReadMem(4 bytes @ 0xE0001058) -- Data:  00 00 00 00  returns 0x01 (0001ms, 1586ms total)
T0E9C 011:484 JLINK_ReadReg(R0)  returns 0x40010C00 (0000ms, 1586ms total)
T0E9C 011:484 JLINK_ReadReg(R1)  returns 0x00000400 (0000ms, 1586ms total)
T0E9C 011:484 JLINK_ReadReg(R2)  returns 0x40010C00 (0000ms, 1586ms total)
T0E9C 011:484 JLINK_ReadReg(R3)  returns 0x10030400 (0001ms, 1587ms total)
T0E9C 011:485 JLINK_ReadReg(R4)  returns 0x08007788 (0000ms, 1587ms total)
T0E9C 011:485 JLINK_ReadReg(R5)  returns 0x08007788 (0000ms, 1587ms total)
T0E9C 011:485 JLINK_ReadReg(R6)  returns 0x00000000 (0000ms, 1587ms total)
T0E9C 011:485 JLINK_ReadReg(R7)  returns 0x00000000 (0000ms, 1587ms total)
T0E9C 011:485 JLINK_ReadReg(R8)  returns 0x00000000 (0000ms, 1587ms total)
T0E9C 011:485 JLINK_ReadReg(R9)  returns 0x20000160 (0000ms, 1587ms total)
T0E9C 011:485 JLINK_ReadReg(R10)  returns 0x00000000 (0000ms, 1587ms total)
T0E9C 011:485 JLINK_ReadReg(R11)  returns 0x00000000 (0000ms, 1587ms total)
T0E9C 011:485 JLINK_ReadReg(R12)  returns 0x00000400 (0000ms, 1587ms total)
T0E9C 011:485 JLINK_ReadReg(R13)  returns 0x20000C78 (0000ms, 1587ms total)
T0E9C 011:485 JLINK_ReadReg(R14)  returns 0x08000EC3 (0000ms, 1587ms total)
T0E9C 011:485 JLINK_ReadReg(R15)  returns 0x08000EC2 (0000ms, 1587ms total)
T0E9C 011:485 JLINK_ReadReg(XPSR)  returns 0x61000000 (0000ms, 1587ms total)
T0E9C 011:485 JLINK_ReadReg(MSP)  returns 0x20000C78 (0000ms, 1587ms total)
T0E9C 011:485 JLINK_ReadReg(PSP)  returns 0x20000800 (0000ms, 1587ms total)
T0E9C 011:485 JLINK_ReadReg(CFBP)  returns 0x00000000 (0000ms, 1587ms total)
T1104 011:485 JLINK_ReadMem (0x20000C7C, 0x0004 Bytes, ...) -- CPU_ReadMem(64 bytes @ 0x20000C40) -- Updating C cache (64 bytes @ 0x20000C40) -- Read from C cache (4 bytes @ 0x20000C7C) -- Data:  C9 5F 00 08  returns 0x00 (0002ms, 1589ms total)
T1104 011:487 JLINK_ReadMemU32(0xE0001004, 0x0001 Items, ...) -- CPU_ReadMem(4 bytes @ 0xE0001004) -- Data:  32 F9 00 00  returns 0x01 (0001ms, 1590ms total)
T1104 011:490 JLINK_ReadMem (0x200002AF, 0x0020 Bytes, ...) -- CPU_ReadMem(128 bytes @ 0x20000280) -- Updating C cache (128 bytes @ 0x20000280) -- Read from C cache (32 bytes @ 0x200002AF) -- Data:  00 00 00 00 00 00 00 00 00 00 00 00 00 00 00 00 ...  returns 0x00 (0004ms, 1594ms total)
T1104 011:495 JLINK_ReadMem (0x08000EC2, 0x0002 Bytes, ...) -- CPU_ReadMem(64 bytes @ 0x08000EC0) -- Updating C cache (64 bytes @ 0x08000EC0) -- Read from C cache (2 bytes @ 0x08000EC2) -- Data:  4F F4  returns 0x00 (0002ms, 1596ms total)
T1104 011:497 JLINK_ReadMem (0x08000EC4, 0x003C Bytes, ...) -- Read from C cache (60 bytes @ 0x08000EC4) -- Data:  80 51 2B 48 03 F0 71 FE 4F F4 80 61 28 48 03 F0 ...  returns 0x00 (0000ms, 1596ms total)
T0E9C 011:819 JLINK_Step() -- Read from C cache (2 bytes @ 0x08000EC2) -- Read from C cache (2 bytes @ 0x08000EC4) -- Simulated  returns 0x00 (0001ms, 1597ms total)
T0E9C 011:820 JLINK_ReadReg(R15)  returns 0x08000EC6 (0000ms, 1597ms total)
T0E9C 011:820 JLINK_ReadReg(XPSR)  returns 0x61000000 (0000ms, 1597ms total)
T0E9C 011:820 JLINK_Step() -- Read from C cache (2 bytes @ 0x08000EC6) -- CPU_ReadMem(64 bytes @ 0x08000F40) -- Updating C cache (64 bytes @ 0x08000F40) -- Read from C cache (4 bytes @ 0x08000F74) -- Simulated  returns 0x00 (0002ms, 1599ms total)
T0E9C 011:822 JLINK_ReadReg(R15)  returns 0x08000EC8 (0000ms, 1599ms total)
T0E9C 011:822 JLINK_ReadReg(XPSR)  returns 0x61000000 (0000ms, 1599ms total)
T0E9C 011:822 JLINK_SetBPEx(Addr = 0x08000ECC, Type = 0xFFFFFFF2)  returns 0x0000000D (0000ms, 1599ms total)
T0E9C 011:822 JLINK_SetBPEx(Addr = 0x0800067C, Type = 0xFFFFFFF2)  returns 0x0000000E (0000ms, 1599ms total)
T0E9C 011:822 JLINK_SetBPEx(Addr = 0x08000650, Type = 0xFFFFFFF2)  returns 0x0000000F (0000ms, 1599ms total)
T0E9C 011:823 JLINK_Go() -- CPU_WriteMem(4 bytes @ 0xE0002008) -- CPU_WriteMem(4 bytes @ 0xE000200C) -- CPU_WriteMem(4 bytes @ 0xE0002010) -- CPU_WriteMem(4 bytes @ 0xE0002014) -- CPU_WriteMem(4 bytes @ 0xE0002018) -- CPU_WriteMem(4 bytes @ 0xE000201C) (0010ms, 1610ms total)
T0E9C 011:933 JLINK_IsHalted()  returns TRUE (0007ms, 1617ms total)
T0E9C 011:940 JLINK_Halt()  returns 0x00 (0000ms, 1610ms total)
T0E9C 011:940 JLINK_IsHalted()  returns TRUE (0000ms, 1610ms total)
T0E9C 011:940 JLINK_IsHalted()  returns TRUE (0000ms, 1610ms total)
T0E9C 011:940 JLINK_IsHalted()  returns TRUE (0000ms, 1610ms total)
T0E9C 011:940 JLINK_ReadReg(R15)  returns 0x08000ECC (0000ms, 1610ms total)
T0E9C 011:940 JLINK_ReadReg(XPSR)  returns 0x61000000 (0000ms, 1610ms total)
T0E9C 011:940 JLINK_ClrBPEx(BPHandle = 0x0000000D)  returns 0x00 (0000ms, 1610ms total)
T0E9C 011:940 JLINK_ClrBPEx(BPHandle = 0x0000000E)  returns 0x00 (0000ms, 1610ms total)
T0E9C 011:941 JLINK_ClrBPEx(BPHandle = 0x0000000F)  returns 0x00 (0000ms, 1610ms total)
T0E9C 011:941 JLINK_ReadMemU32(0xE000ED30, 0x0001 Items, ...) -- CPU_ReadMem(4 bytes @ 0xE000ED30) -- Data:  03 00 00 00  returns 0x01 (0001ms, 1611ms total)
T0E9C 011:942 JLINK_ReadMemU32(0xE0001028, 0x0001 Items, ...) -- CPU_ReadMem(4 bytes @ 0xE0001028) -- Data:  00 00 00 00  returns 0x01 (0002ms, 1613ms total)
T0E9C 011:944 JLINK_ReadMemU32(0xE0001038, 0x0001 Items, ...) -- CPU_ReadMem(4 bytes @ 0xE0001038) -- Data:  00 02 00 00  returns 0x01 (0002ms, 1615ms total)
T0E9C 011:946 JLINK_ReadMemU32(0xE0001048, 0x0001 Items, ...) -- CPU_ReadMem(4 bytes @ 0xE0001048) -- Data:  00 00 00 00  returns 0x01 (0001ms, 1616ms total)
T0E9C 011:947 JLINK_ReadMemU32(0xE0001058, 0x0001 Items, ...) -- CPU_ReadMem(4 bytes @ 0xE0001058) -- Data:  00 00 00 00  returns 0x01 (0001ms, 1617ms total)
T0E9C 011:949 JLINK_ReadReg(R0)  returns 0x40010C00 (0000ms, 1617ms total)
T0E9C 011:949 JLINK_ReadReg(R1)  returns 0x00001000 (0000ms, 1617ms total)
T0E9C 011:949 JLINK_ReadReg(R2)  returns 0x40010C00 (0000ms, 1617ms total)
T0E9C 011:949 JLINK_ReadReg(R3)  returns 0x10030400 (0000ms, 1617ms total)
T0E9C 011:949 JLINK_ReadReg(R4)  returns 0x08007788 (0000ms, 1617ms total)
T0E9C 011:949 JLINK_ReadReg(R5)  returns 0x08007788 (0000ms, 1617ms total)
T0E9C 011:949 JLINK_ReadReg(R6)  returns 0x00000000 (0000ms, 1617ms total)
T0E9C 011:949 JLINK_ReadReg(R7)  returns 0x00000000 (0000ms, 1617ms total)
T0E9C 011:949 JLINK_ReadReg(R8)  returns 0x00000000 (0000ms, 1617ms total)
T0E9C 011:949 JLINK_ReadReg(R9)  returns 0x20000160 (0000ms, 1617ms total)
T0E9C 011:949 JLINK_ReadReg(R10)  returns 0x00000000 (0000ms, 1617ms total)
T0E9C 011:949 JLINK_ReadReg(R11)  returns 0x00000000 (0000ms, 1617ms total)
T0E9C 011:949 JLINK_ReadReg(R12)  returns 0x00000400 (0000ms, 1617ms total)
T0E9C 011:949 JLINK_ReadReg(R13)  returns 0x20000C78 (0000ms, 1617ms total)
T0E9C 011:949 JLINK_ReadReg(R14)  returns 0x08000ECD (0000ms, 1617ms total)
T0E9C 011:949 JLINK_ReadReg(R15)  returns 0x08000ECC (0000ms, 1617ms total)
T0E9C 011:949 JLINK_ReadReg(XPSR)  returns 0x61000000 (0000ms, 1617ms total)
T0E9C 011:949 JLINK_ReadReg(MSP)  returns 0x20000C78 (0000ms, 1617ms total)
T0E9C 011:949 JLINK_ReadReg(PSP)  returns 0x20000800 (0000ms, 1617ms total)
T0E9C 011:949 JLINK_ReadReg(CFBP)  returns 0x00000000 (0000ms, 1617ms total)
T1104 011:951 JLINK_ReadMem (0x20000C7C, 0x0004 Bytes, ...) -- CPU_ReadMem(64 bytes @ 0x20000C40) -- Updating C cache (64 bytes @ 0x20000C40) -- Read from C cache (4 bytes @ 0x20000C7C) -- Data:  C9 5F 00 08  returns 0x00 (0002ms, 1619ms total)
T1104 011:953 JLINK_ReadMemU32(0xE0001004, 0x0001 Items, ...) -- CPU_ReadMem(4 bytes @ 0xE0001004) -- Data:  2C 41 01 00  returns 0x01 (0001ms, 1620ms total)
T1104 011:955 JLINK_ReadMem (0x200002AF, 0x0020 Bytes, ...) -- CPU_ReadMem(128 bytes @ 0x20000280) -- Updating C cache (128 bytes @ 0x20000280) -- Read from C cache (32 bytes @ 0x200002AF) -- Data:  00 00 00 00 00 00 00 00 00 00 00 00 00 00 00 00 ...  returns 0x00 (0003ms, 1623ms total)
T0E9C 012:203 JLINK_ReadMem (0x08000ECC, 0x003C Bytes, ...) -- CPU_ReadMem(128 bytes @ 0x08000EC0) -- Updating C cache (128 bytes @ 0x08000EC0) -- Read from C cache (60 bytes @ 0x08000ECC) -- Data:  4F F4 80 61 28 48 03 F0 6C FE 28 48 02 F0 72 FB ...  returns 0x00 (0003ms, 1626ms total)
T0E9C 012:206 JLINK_Step() -- Read from C cache (2 bytes @ 0x08000ECC) -- Read from C cache (2 bytes @ 0x08000ECE) -- Simulated  returns 0x00 (0000ms, 1626ms total)
T0E9C 012:206 JLINK_ReadReg(R15)  returns 0x08000ED0 (0000ms, 1626ms total)
T0E9C 012:206 JLINK_ReadReg(XPSR)  returns 0x61000000 (0000ms, 1626ms total)
T0E9C 012:206 JLINK_Step() -- Read from C cache (2 bytes @ 0x08000ED0) -- CPU_ReadMem(64 bytes @ 0x08000F40) -- Updating C cache (64 bytes @ 0x08000F40) -- Read from C cache (4 bytes @ 0x08000F74) -- Simulated  returns 0x00 (0002ms, 1628ms total)
T0E9C 012:208 JLINK_ReadReg(R15)  returns 0x08000ED2 (0000ms, 1628ms total)
T0E9C 012:208 JLINK_ReadReg(XPSR)  returns 0x61000000 (0000ms, 1628ms total)
T0E9C 012:208 JLINK_SetBPEx(Addr = 0x08000ED6, Type = 0xFFFFFFF2)  returns 0x00000010 (0000ms, 1628ms total)
T0E9C 012:208 JLINK_SetBPEx(Addr = 0x0800067C, Type = 0xFFFFFFF2)  returns 0x00000011 (0000ms, 1628ms total)
T0E9C 012:208 JLINK_SetBPEx(Addr = 0x08000650, Type = 0xFFFFFFF2)  returns 0x00000012 (0000ms, 1628ms total)
T0E9C 012:208 JLINK_Go() -- CPU_WriteMem(4 bytes @ 0xE0002008) -- CPU_WriteMem(4 bytes @ 0xE000200C) -- CPU_WriteMem(4 bytes @ 0xE0002010) -- CPU_WriteMem(4 bytes @ 0xE0002014) -- CPU_WriteMem(4 bytes @ 0xE0002018) -- CPU_WriteMem(4 bytes @ 0xE000201C) (0010ms, 1638ms total)
T0E9C 012:319 JLINK_IsHalted()  returns TRUE (0007ms, 1645ms total)
T0E9C 012:326 JLINK_Halt()  returns 0x00 (0000ms, 1638ms total)
T0E9C 012:326 JLINK_IsHalted()  returns TRUE (0000ms, 1638ms total)
T0E9C 012:326 JLINK_IsHalted()  returns TRUE (0000ms, 1638ms total)
T0E9C 012:326 JLINK_IsHalted()  returns TRUE (0000ms, 1638ms total)
T0E9C 012:326 JLINK_ReadReg(R15)  returns 0x08000ED6 (0000ms, 1638ms total)
T0E9C 012:326 JLINK_ReadReg(XPSR)  returns 0x61000000 (0000ms, 1638ms total)
T0E9C 012:326 JLINK_ClrBPEx(BPHandle = 0x00000010)  returns 0x00 (0000ms, 1638ms total)
T0E9C 012:326 JLINK_ClrBPEx(BPHandle = 0x00000011)  returns 0x00 (0000ms, 1638ms total)
T0E9C 012:326 JLINK_ClrBPEx(BPHandle = 0x00000012)  returns 0x00 (0000ms, 1638ms total)
T0E9C 012:326 JLINK_ReadMemU32(0xE000ED30, 0x0001 Items, ...) -- CPU_ReadMem(4 bytes @ 0xE000ED30) -- Data:  02 00 00 00  returns 0x01 (0002ms, 1640ms total)
T0E9C 012:328 JLINK_ReadMemU32(0xE0001028, 0x0001 Items, ...) -- CPU_ReadMem(4 bytes @ 0xE0001028) -- Data:  00 00 00 00  returns 0x01 (0001ms, 1641ms total)
T0E9C 012:329 JLINK_ReadMemU32(0xE0001038, 0x0001 Items, ...) -- CPU_ReadMem(4 bytes @ 0xE0001038) -- Data:  00 02 00 00  returns 0x01 (0001ms, 1642ms total)
T0E9C 012:330 JLINK_ReadMemU32(0xE0001048, 0x0001 Items, ...) -- CPU_ReadMem(4 bytes @ 0xE0001048) -- Data:  00 00 00 00  returns 0x01 (0001ms, 1643ms total)
T0E9C 012:331 JLINK_ReadMemU32(0xE0001058, 0x0001 Items, ...) -- CPU_ReadMem(4 bytes @ 0xE0001058) -- Data:  00 00 00 00  returns 0x01 (0002ms, 1645ms total)
T0E9C 012:333 JLINK_ReadReg(R0)  returns 0x40010C00 (0000ms, 1645ms total)
T0E9C 012:333 JLINK_ReadReg(R1)  returns 0x00000400 (0000ms, 1645ms total)
T0E9C 012:333 JLINK_ReadReg(R2)  returns 0x40010C00 (0000ms, 1645ms total)
T0E9C 012:333 JLINK_ReadReg(R3)  returns 0x10030400 (0000ms, 1645ms total)
T0E9C 012:333 JLINK_ReadReg(R4)  returns 0x08007788 (0000ms, 1645ms total)
T0E9C 012:333 JLINK_ReadReg(R5)  returns 0x08007788 (0000ms, 1645ms total)
T0E9C 012:333 JLINK_ReadReg(R6)  returns 0x00000000 (0000ms, 1645ms total)
T0E9C 012:333 JLINK_ReadReg(R7)  returns 0x00000000 (0000ms, 1645ms total)
T0E9C 012:333 JLINK_ReadReg(R8)  returns 0x00000000 (0000ms, 1645ms total)
T0E9C 012:333 JLINK_ReadReg(R9)  returns 0x20000160 (0000ms, 1645ms total)
T0E9C 012:333 JLINK_ReadReg(R10)  returns 0x00000000 (0000ms, 1645ms total)
T0E9C 012:333 JLINK_ReadReg(R11)  returns 0x00000000 (0000ms, 1645ms total)
T0E9C 012:333 JLINK_ReadReg(R12)  returns 0x00000400 (0000ms, 1645ms total)
T0E9C 012:333 JLINK_ReadReg(R13)  returns 0x20000C78 (0000ms, 1645ms total)
T0E9C 012:333 JLINK_ReadReg(R14)  returns 0x08000ED7 (0000ms, 1645ms total)
T0E9C 012:333 JLINK_ReadReg(R15)  returns 0x08000ED6 (0000ms, 1645ms total)
T0E9C 012:333 JLINK_ReadReg(XPSR)  returns 0x61000000 (0000ms, 1645ms total)
T0E9C 012:333 JLINK_ReadReg(MSP)  returns 0x20000C78 (0000ms, 1645ms total)
T0E9C 012:333 JLINK_ReadReg(PSP)  returns 0x20000800 (0000ms, 1645ms total)
T0E9C 012:333 JLINK_ReadReg(CFBP)  returns 0x00000000 (0000ms, 1645ms total)
T1104 012:333 JLINK_ReadMem (0x20000C7C, 0x0004 Bytes, ...) -- CPU_ReadMem(64 bytes @ 0x20000C40) -- Updating C cache (64 bytes @ 0x20000C40) -- Read from C cache (4 bytes @ 0x20000C7C) -- Data:  C9 5F 00 08  returns 0x00 (0003ms, 1648ms total)
T1104 012:336 JLINK_ReadMemU32(0xE0001004, 0x0001 Items, ...) -- CPU_ReadMem(4 bytes @ 0xE0001004) -- Data:  F5 88 01 00  returns 0x01 (0001ms, 1649ms total)
T1104 012:338 JLINK_ReadMem (0x200002AF, 0x0020 Bytes, ...) -- CPU_ReadMem(128 bytes @ 0x20000280) -- Updating C cache (128 bytes @ 0x20000280) -- Read from C cache (32 bytes @ 0x200002AF) -- Data:  00 00 00 00 00 00 00 00 00 00 00 00 00 00 00 00 ...  returns 0x00 (0003ms, 1652ms total)
T1104 176:471 JLINK_ReadMem (0x00000000, 0x00FF Bytes, ...)
                JLINK_ReadMemHW(0x00000000, 0x0004 Bytes, ...) -- CPU_ReadMem(4 bytes @ 0x00000000) -- Data:  80 0C 00 20  returns 0x00 (0001ms, 0001ms total)
                JLINK_ReadMemHW(0x08000000, 0x0004 Bytes, ...) -- CPU_ReadMem(4 bytes @ 0x08000000) -- Data:  80 0C 00 20  returns 0x00 (0001ms, 0002ms total)
                JLINK_WriteMemHW(0x00000000, 0x0004 Bytes, ...) -- Data:  01 00 01 00 -- CPU_WriteMem(4 bytes @ 0x00000000)  returns 0x04 (0001ms, 0004ms total)
                JLINK_ReadMemHW(0x00000000, 0x0004 Bytes, ...) -- CPU_ReadMem(4 bytes @ 0x00000000) -- Data:  80 0C 00 20  returns 0x00 (0001ms, 0005ms total)
               -- MA0 is in flash -- Unmirror addr 0x00000000 -- CPU_ReadMem(256 bytes @ 0x08000000) -- Updating C cache (256 bytes @ 0x08000000) -- Read from C cache (255 bytes @ 0x08000000) -- Data:  80 0C 00 20 01 01 00 08 09 01 00 08 0B 01 00 08 ...  returns 0x00 (0009ms, 1661ms total)
T0E9C 204:931 JLINK_SetBPEx(Addr = 0x0800067C, Type = 0xFFFFFFF2)  returns 0x00000013 (0001ms, 1662ms total)
T0E9C 204:932 JLINK_SetBPEx(Addr = 0x08000650, Type = 0xFFFFFFF2)  returns 0x00000014 (0000ms, 1662ms total)
T0E9C 204:932 JLINK_Go() -- CPU_WriteMem(4 bytes @ 0xE000200C) -- CPU_WriteMem(4 bytes @ 0xE0002008) -- CPU_WriteMem(4 bytes @ 0xE0002010) -- CPU_WriteMem(4 bytes @ 0xE000200C) -- CPU_WriteMem(4 bytes @ 0xE0002008) -- CPU_WriteMem(4 bytes @ 0xE000200C) -- CPU_WriteMem(4 bytes @ 0xE0002010) -- CPU_WriteMem(4 bytes @ 0xE0002014) -- CPU_WriteMem(4 bytes @ 0xE0002018) -- CPU_WriteMem(4 bytes @ 0xE000201C) -- Invalidate MA0 status (0013ms, 1675ms total)
T0E9C 205:046 JLINK_IsHalted()  returns FALSE (0001ms, 1676ms total)
T0E9C 205:147 JLINK_IsHalted()  returns FALSE (0001ms, 1676ms total)
T0E9C 205:249 JLINK_IsHalted()  returns FALSE (0001ms, 1676ms total)
T0E9C 205:350 JLINK_IsHalted()  returns FALSE (0001ms, 1676ms total)
T0E9C 205:452 JLINK_ReadMemU32(0xE0001004, 0x0001 Items, ...) -- CPU is running -- CPU_ReadMem(4 bytes @ 0xE0001004) -- Data:  EE A0 73 02  returns 0x01 (0001ms, 1676ms total)
T1104 205:454 JLINK_ReadMem (0x200002AF, 0x0020 Bytes, ...) -- CPU is running -- CPU_ReadMem(32 bytes @ 0x200002AF) -- Data:  00 00 00 00 00 00 00 00 00 00 00 00 00 00 00 00 ...  returns 0x00 (0002ms, 1678ms total)
T0E9C 205:457 JLINK_IsHalted()  returns FALSE (0001ms, 1679ms total)
T0E9C 205:558 JLINK_IsHalted()  returns FALSE (0001ms, 1679ms total)
T0E9C 205:660 JLINK_IsHalted()  returns FALSE (0001ms, 1679ms total)
T0E9C 205:761 JLINK_IsHalted()  returns FALSE (0001ms, 1679ms total)
T0E9C 205:863 JLINK_IsHalted()  returns FALSE (0001ms, 1679ms total)
T0E9C 205:965 JLINK_ReadMemU32(0xE0001004, 0x0001 Items, ...) -- CPU is running -- CPU_ReadMem(4 bytes @ 0xE0001004) -- Data:  2C 8E A8 04  returns 0x01 (0002ms, 1680ms total)
T1104 205:967 JLINK_ReadMem (0x200002AF, 0x0020 Bytes, ...) -- CPU is running -- CPU_ReadMem(32 bytes @ 0x200002AF) -- Data:  00 00 00 00 00 00 00 00 00 00 00 00 00 00 00 00 ...  returns 0x00 (0003ms, 1683ms total)
T0E9C 205:971 JLINK_IsHalted()  returns FALSE (0001ms, 1684ms total)
T0E9C 206:073 JLINK_IsHalted()  returns FALSE (0001ms, 1684ms total)
T0E9C 206:175 JLINK_IsHalted()  returns FALSE (0001ms, 1684ms total)
T0E9C 206:276 JLINK_IsHalted()  returns FALSE (0001ms, 1684ms total)
T0E9C 206:378 JLINK_IsHalted()  returns FALSE (0002ms, 1685ms total)
T0E9C 206:480 JLINK_ReadMemU32(0xE0001004, 0x0001 Items, ...) -- CPU is running -- CPU_ReadMem(4 bytes @ 0xE0001004) -- Data:  56 60 DD 06  returns 0x01 (0002ms, 1685ms total)
T1104 206:482 JLINK_ReadMem (0x200002AF, 0x0020 Bytes, ...) -- CPU is running -- CPU_ReadMem(32 bytes @ 0x200002AF) -- Data:  00 00 00 00 00 00 00 00 00 00 00 00 00 00 00 00 ...  returns 0x00 (0003ms, 1688ms total)
T0E9C 206:485 JLINK_IsHalted()  returns FALSE (0002ms, 1690ms total)
T0E9C 206:588 JLINK_IsHalted()  returns FALSE (0001ms, 1689ms total)
T0E9C 206:689 JLINK_IsHalted()  returns FALSE (0001ms, 1689ms total)
T0E9C 206:791 JLINK_IsHalted()  returns FALSE (0001ms, 1689ms total)
T0E9C 206:892 JLINK_IsHalted()  returns FALSE (0001ms, 1689ms total)
T0E9C 206:994 JLINK_ReadMemU32(0xE0001004, 0x0001 Items, ...) -- CPU is running -- CPU_ReadMem(4 bytes @ 0xE0001004) -- Data:  8E 20 13 09  returns 0x01 (0003ms, 1691ms total)
